
**** 02/21/23 17:16:52 **** PSpice 17.4.0 (4 January 2023) **** ID# 0 ********

 ** Profile: "SCHEMATIC1-hbridge"  [ s:\projects\radiotelescope\radiotelescope-pcb\simulation\hbridge\hbridge-pspicefiles\schematic1\


 ****     CIRCUIT DESCRIPTION


******************************************************************************




** Creating circuit file "hbridge.cir" 
** WARNING: THIS AUTOMATICALLY GENERATED FILE MAY BE OVERWRITTEN BY SUBSEQUENT SIMULATIONS

*Libraries: 
* Profile Libraries :
* Local Libraries :
.LIB "../../../hbridge-pspicefiles/hbridge.lib" 
* From [PSPICE NETLIST] section of C:\Users\zach\cdssetup\OrCAD_PSpice\17.4.0\PSpice.ini file:
.lib "nom.lib" 

*Analysis directives: 
.TRAN  0 500u 0 
.OPTIONS ADVCONV
.PROBE64 V(alias(*)) I(alias(*)) W(alias(*)) D(alias(*)) NOISE(alias(*)) 
.INC "..\SCHEMATIC1.net" 



**** INCLUDING SCHEMATIC1.net ****
* source HBRIDGE
V_V1         +24VDC 0 24VDC
R_R7         N03525 +24VDC 1K
R_R6         0 N03761 10k
V_V2         HBRIDGE_1 0  
+PULSE 0 5 10u 10u 10u 200u 400u
Q_Q1         N05618 N03761 0 QbreakN 
R_R5         N04776 HBRIDGE_1 10k
Q_Q2         N05606 N04776 0 QbreakN 
R_R3         N03543 +24VDC 1k
X_D1         N05606 N03543 awbbzx84c5v1 PARAMS:               
X_D2         N05618 N03525 awbbzx84c5v1 PARAMS:               
X_U1         N03557 N15780 0 IRFRU4105
X_U2         N03557 N03525 +24VDC IRFRU5305
X_U3         N03583 N03543 +24VDC IRFRU5305
X_U4         N03583 N15669 0 IRFRU4105
X_D4         N03583 +24VDC awb1n4720 PARAMS:                
X_D5         N03557 +24VDC awb1n4720 PARAMS:                
X_D6         0 N03583 awb1n4720 PARAMS:                
X_D7         0 N03557 awb1n4720 PARAMS:                
R_R11         N15669 0 100
R_R12         HBRIDGE_1 N15780 100
R_R17         N03557 N21687  12 TC=0,0 
L_L2         N21687 N03583  2m  

**** RESUMING hbridge.cir ****
.END

**** 02/21/23 17:16:52 **** PSpice 17.4.0 (4 January 2023) **** ID# 0 ********

 ** Profile: "SCHEMATIC1-hbridge"  [ s:\projects\radiotelescope\radiotelescope-pcb\simulation\hbridge\hbridge-pspicefiles\schematic1\


 ****     Diode MODEL PARAMETERS


******************************************************************************




               X_U1.MD         X_U1.MD1        X_U1.MD2        X_U1.MD3        
          IS   63.895900E-12    0             100.000000E-12  100.000000E-12 
           N    1.21196        50                .429646         .429646     
          BV   55                                                            
         IBV  250.000000E-06                                                 
          RS     .01099                         3.000000E-06                 
          TT  100.000000E-09                                                 
         CJO  730.205000E-12  775.098000E-12                                 
          VJ     .5214           .50212                                      
           M     .423292         .518648                                     
          FC                   10.000000E-09                                 
          EG    1.2                                                          
         XTI    3.00272                                                      


               X_U2.MD         X_U2.MD1        X_U2.MD2        X_U2.MD3        
          IS    8.908540E-09    0             100.000000E-12  100.000000E-12 
           N    1.5            50                .400245         .400245     
          BV   55                                                            
         IBV  250.000000E-06                                                 
          RS    9.217230E-03                    3.000000E-06                 
          TT  100.000000E-06                                                 
         CJO    1.305460E-09    1.637290E-09                                 
          VJ     .663932         .791199                                     
           M     .419045         .552278                                     
          FC                   10.000000E-09                                 
          EG    1.2                                                          
         XTI    3.13635                                                      


               X_U3.MD         X_U3.MD1        X_U3.MD2        X_U3.MD3        
          IS    8.908540E-09    0             100.000000E-12  100.000000E-12 
           N    1.5            50                .400245         .400245     
          BV   55                                                            
         IBV  250.000000E-06                                                 
          RS    9.217230E-03                    3.000000E-06                 
          TT  100.000000E-06                                                 
         CJO    1.305460E-09    1.637290E-09                                 
          VJ     .663932         .791199                                     
           M     .419045         .552278                                     
          FC                   10.000000E-09                                 
          EG    1.2                                                          
         XTI    3.13635                                                      


               X_U4.MD         X_U4.MD1        X_U4.MD2        X_U4.MD3        
          IS   63.895900E-12    0             100.000000E-12  100.000000E-12 
           N    1.21196        50                .429646         .429646     
          BV   55                                                            
         IBV  250.000000E-06                                                 
          RS     .01099                         3.000000E-06                 
          TT  100.000000E-09                                                 
         CJO  730.205000E-12  775.098000E-12                                 
          VJ     .5214           .50212                                      
           M     .423292         .518648                                     
          FC                   10.000000E-09                                 
          EG    1.2                                                          
         XTI    3.00272                                                      


               X_D4.model22    X_D5.model22    X_D6.model22    X_D7.model22    
          IS  361.000000E-09  361.000000E-09  361.000000E-09  361.000000E-09 
           N    2.21            2.21            2.21            2.21         
          BV  220             220             220             220            
         IBV    1               1               1               1            
          RS    2.850000E-03    2.850000E-03    2.850000E-03    2.850000E-03 
          TT    1.000000E-09    1.000000E-09    1.000000E-09    1.000000E-09 
          EG    1.11            1.11            1.11            1.11         


**** 02/21/23 17:16:52 **** PSpice 17.4.0 (4 January 2023) **** ID# 0 ********

 ** Profile: "SCHEMATIC1-hbridge"  [ s:\projects\radiotelescope\radiotelescope-pcb\simulation\hbridge\hbridge-pspicefiles\schematic1\


 ****     BJT MODEL PARAMETERS


******************************************************************************




               QbreakN         
               NPN             
       LEVEL    1            
          IS  100.000000E-18 
          BF  100            
          NF    1            
          BR    1            
          NR    1            
         ISS    0            
          RE    0            
          RC    0            
         CJE    0            
         VJE     .75         
         CJC    0            
         VJC     .75         
         MJC     .33         
        XCJC    1            
         CJS    0            
         VJS     .75         
          KF    0            
          AF    1            
          CN    2.42         
           D     .87         


**** 02/21/23 17:16:52 **** PSpice 17.4.0 (4 January 2023) **** ID# 0 ********

 ** Profile: "SCHEMATIC1-hbridge"  [ s:\projects\radiotelescope\radiotelescope-pcb\simulation\hbridge\hbridge-pspicefiles\schematic1\


 ****     MOSFET MODEL PARAMETERS


******************************************************************************




               X_U1.MM         X_U2.MM         X_U3.MM         X_U4.MM         
               NMOS            PMOS            PMOS            NMOS            
       LEVEL    1               1               1               1            
           L  100.000000E-06  100.000000E-06  100.000000E-06  100.000000E-06 
           W  100.000000E-06  100.000000E-06  100.000000E-06  100.000000E-06 
         VTO    3.63895        -3.45761        -3.45761         3.63895      
          KP   15.6814         10.066          10.066          15.6814       
       GAMMA    0               0               0               0            
         PHI     .6              .6              .6              .6          
      LAMBDA    0               0               0               0            
          IS    0               0               0               0            
          JS    0               0               0               0            
          PB     .8              .8              .8              .8          
        PBSW     .8              .8              .8              .8          
          CJ    0               0               0               0            
        CJSW    0               0               0               0            
        CGSO    6.127320E-06   10.314100E-06   10.314100E-06    6.127320E-06 
        CGDO   10.000400E-12   10.000000E-12   10.000000E-12   10.000400E-12 
        CGBO    0               0               0               0            
         TOX    0               0               0               0            
          XJ    0               0               0               0            
       UCRIT   10.000000E+03   10.000000E+03   10.000000E+03   10.000000E+03 
      DIOMOD    1               1               1               1            
         VFB    0               0               0               0            
        LETA    0               0               0               0            
        WETA    0               0               0               0            
          U0    0               0               0               0            
        TEMP    0               0               0               0            
         VDD    5               5               5               5            
       XPART    0               0               0               0            


**** 02/21/23 17:16:52 **** PSpice 17.4.0 (4 January 2023) **** ID# 0 ********

 ** Profile: "SCHEMATIC1-hbridge"  [ s:\projects\radiotelescope\radiotelescope-pcb\simulation\hbridge\hbridge-pspicefiles\schematic1\


 ****     INITIAL TRANSIENT SOLUTION       TEMPERATURE =   27.000 DEG C


******************************************************************************



 NODE   VOLTAGE     NODE   VOLTAGE     NODE   VOLTAGE     NODE   VOLTAGE


(+24VDC)   24.0000 (N03525)   24.0000 (N03543)   24.0000 (N03557)   12.0100     

(N03583)   12.0100 (N03761) 240.0E-09 (N04776) 240.0E-09 (N05606)   24.0000     

(N05618)   24.0000 (N15669) 3.603E-09 (N15780) 3.603E-09 (N21687)   12.0100     

(X_U1.4)    0.0000 (X_U1.5)   12.0100 (X_U1.6)   12.0100 (X_U1.7) 3.661E-09     

(X_U1.8) 374.8E-15 (X_U1.9)   12.0100 (X_U2.4)    0.0000 (X_U2.5)  -11.9900     

(X_U2.6)  -11.9900 (X_U2.7)   24.0000 (X_U2.8)   24.0000 (X_U2.9)   12.0100     

(X_U3.4)    0.0000 (X_U3.5)  -11.9900 (X_U3.6)  -11.9900 (X_U3.7)   24.0000     

(X_U3.8)   24.0000 (X_U3.9)   12.0100 (X_U4.4)    0.0000 (X_U4.5)   12.0100     

(X_U4.6)   12.0100 (X_U4.7) 3.661E-09 (X_U4.8) 374.8E-15 (X_U4.9)   12.0100     

(X_U1.10)   12.0100                   (X_U1.11)   12.0100                       

(X_U2.10)  -11.9900                   (X_U2.11)  -11.9900                       

(X_U3.10)  -11.9900                   (X_U3.11)  -11.9900                       

(X_U4.10)   12.0100                   (X_U4.11)   12.0100                       

(HBRIDGE_1)    0.0000                 




    VOLTAGE SOURCE CURRENTS
    NAME         CURRENT

    V_V1        -1.164E-05
    V_V2         6.003E-11
    X_U1.VFI2    1.201E-11
    X_U1.VFI1    0.000E+00
    X_U2.VFI2   -1.199E-11
    X_U2.VFI1    0.000E+00
    X_U3.VFI2   -1.199E-11
    X_U3.VFI1    0.000E+00
    X_U4.VFI2    1.201E-11
    X_U4.VFI1    0.000E+00

    TOTAL POWER DISSIPATION   2.79E-04  WATTS

Reducing minimum delta to make the circuit converge.
Reducing minimum delta to make the circuit converge.
Reducing minimum delta to make the circuit converge.


          JOB CONCLUDED

**** 02/21/23 17:16:52 **** PSpice 17.4.0 (4 January 2023) **** ID# 0 ********

 ** Profile: "SCHEMATIC1-hbridge"  [ s:\projects\radiotelescope\radiotelescope-pcb\simulation\hbridge\hbridge-pspicefiles\schematic1\


 ****     JOB STATISTICS SUMMARY


******************************************************************************



  Total job time (using Solver 1)   =         .70
