
**** 11/24/22 09:28:12 ******* PSpice 17.4.0 (Nov 2018) ******* ID# 0 ********

 ** Profile: "SCHEMATIC1-hbridge"  [ S:\projects\radiotelescope-PCB\Simulation\hbridge\hbridge-pspicefiles\schematic1\hbridge.sim ] 


 ****     CIRCUIT DESCRIPTION


******************************************************************************




** Creating circuit file "hbridge.cir" 
** WARNING: THIS AUTOMATICALLY GENERATED FILE MAY BE OVERWRITTEN BY SUBSEQUENT SIMULATIONS

*Libraries: 
* Profile Libraries :
* Local Libraries :
* From [PSPICE NETLIST] section of C:\Users\zach\cdssetup\OrCAD_PSpice\17.4.0\PSpice.ini file:
.lib "nom.lib" 

*Analysis directives: 
.TRAN  0 500u 0 
.OPTIONS ADVCONV
.PROBE64 V(alias(*)) I(alias(*)) W(alias(*)) D(alias(*)) NOISE(alias(*)) 
.INC "..\SCHEMATIC1.net" 



**** INCLUDING SCHEMATIC1.net ****
* source HBRIDGE
R_R8         N03767 N03951 100
R_R1         N03583 N03557 2R
V_V1         N03377 0 24VDC
R_R9         N03791 N03745 100
R_R7         N03525 N03377 1K
R_R6         N03745 N03761 10k
V_V4         N03767 0  
+PULSE 0 5 100u 10u 10u 50u 100u
V_V3         N03745 0 0
Q_Q1         N05618 N03761 0 QbreakN 
R_R5         N04776 N03767 10k
Q_Q2         N05606 N04776 0 QbreakN 
R_R3         N03543 N03377 1k
X_D1         N05606 N03543 awbbzx84c5v1 PARAMS:               
X_D2         N05618 N03525 awbbzx84c5v1 PARAMS:               
X_U1         N03557 N03951 0 IRFRU4105
X_U2         N03557 N03525 N03377 IRFRU5305
X_U3         N03583 N03543 N03377 IRFRU5305
X_U4         N03583 N03791 0 IRFRU4105

**** RESUMING hbridge.cir ****
.END

**** 11/24/22 09:28:12 ******* PSpice 17.4.0 (Nov 2018) ******* ID# 0 ********

 ** Profile: "SCHEMATIC1-hbridge"  [ S:\projects\radiotelescope-PCB\Simulation\hbridge\hbridge-pspicefiles\schematic1\hbridge.sim ] 


 ****     Diode MODEL PARAMETERS


******************************************************************************




               X_U1.MD         X_U1.MD1        X_U1.MD2        X_U1.MD3        
          IS   63.895900E-12    0             100.000000E-12  100.000000E-12 
           N    1.21196        50                .429646         .429646     
          BV   55                                                            
         IBV  250.000000E-06                                                 
          RS     .01099                         3.000000E-06                 
          TT  100.000000E-09                                                 
         CJO  730.205000E-12  775.098000E-12                                 
          VJ     .5214           .50212                                      
           M     .423292         .518648                                     
          FC                   10.000000E-09                                 
          EG    1.2                                                          
         XTI    3.00272                                                      


               X_U2.MD         X_U2.MD1        X_U2.MD2        X_U2.MD3        
          IS    8.908540E-09    0             100.000000E-12  100.000000E-12 
           N    1.5            50                .400245         .400245     
          BV   55                                                            
         IBV  250.000000E-06                                                 
          RS    9.217230E-03                    3.000000E-06                 
          TT  100.000000E-06                                                 
         CJO    1.305460E-09    1.637290E-09                                 
          VJ     .663932         .791199                                     
           M     .419045         .552278                                     
          FC                   10.000000E-09                                 
          EG    1.2                                                          
         XTI    3.13635                                                      


               X_U3.MD         X_U3.MD1        X_U3.MD2        X_U3.MD3        
          IS    8.908540E-09    0             100.000000E-12  100.000000E-12 
           N    1.5            50                .400245         .400245     
          BV   55                                                            
         IBV  250.000000E-06                                                 
          RS    9.217230E-03                    3.000000E-06                 
          TT  100.000000E-06                                                 
         CJO    1.305460E-09    1.637290E-09                                 
          VJ     .663932         .791199                                     
           M     .419045         .552278                                     
          FC                   10.000000E-09                                 
          EG    1.2                                                          
         XTI    3.13635                                                      


               X_U4.MD         X_U4.MD1        X_U4.MD2        X_U4.MD3        
          IS   63.895900E-12    0             100.000000E-12  100.000000E-12 
           N    1.21196        50                .429646         .429646     
          BV   55                                                            
         IBV  250.000000E-06                                                 
          RS     .01099                         3.000000E-06                 
          TT  100.000000E-09                                                 
         CJO  730.205000E-12  775.098000E-12                                 
          VJ     .5214           .50212                                      
           M     .423292         .518648                                     
          FC                   10.000000E-09                                 
          EG    1.2                                                          
         XTI    3.00272                                                      


**** 11/24/22 09:28:12 ******* PSpice 17.4.0 (Nov 2018) ******* ID# 0 ********

 ** Profile: "SCHEMATIC1-hbridge"  [ S:\projects\radiotelescope-PCB\Simulation\hbridge\hbridge-pspicefiles\schematic1\hbridge.sim ] 


 ****     BJT MODEL PARAMETERS


******************************************************************************




               QbreakN         
               NPN             
       LEVEL    1            
          IS  100.000000E-18 
          BF  100            
          NF    1            
          BR    1            
          NR    1            
         ISS    0            
          RE    0            
          RC    0            
         CJE    0            
         VJE     .75         
         CJC    0            
         VJC     .75         
         MJC     .33         
        XCJC    1            
         CJS    0            
         VJS     .75         
          KF    0            
          AF    1            
          CN    2.42         
           D     .87         


**** 11/24/22 09:28:12 ******* PSpice 17.4.0 (Nov 2018) ******* ID# 0 ********

 ** Profile: "SCHEMATIC1-hbridge"  [ S:\projects\radiotelescope-PCB\Simulation\hbridge\hbridge-pspicefiles\schematic1\hbridge.sim ] 


 ****     MOSFET MODEL PARAMETERS


******************************************************************************




               X_U1.MM         X_U2.MM         X_U3.MM         X_U4.MM         
               NMOS            PMOS            PMOS            NMOS            
       LEVEL    1               1               1               1            
           L  100.000000E-06  100.000000E-06  100.000000E-06  100.000000E-06 
           W  100.000000E-06  100.000000E-06  100.000000E-06  100.000000E-06 
         VTO    3.63895        -3.45761        -3.45761         3.63895      
          KP   15.6814         10.066          10.066          15.6814       
       GAMMA    0               0               0               0            
         PHI     .6              .6              .6              .6          
      LAMBDA    0               0               0               0            
          IS    0               0               0               0            
          JS    0               0               0               0            
          PB     .8              .8              .8              .8          
        PBSW     .8              .8              .8              .8          
          CJ    0               0               0               0            
        CJSW    0               0               0               0            
        CGSO    6.127320E-06   10.314100E-06   10.314100E-06    6.127320E-06 
        CGDO   10.000400E-12   10.000000E-12   10.000000E-12   10.000400E-12 
        CGBO    0               0               0               0            
         TOX    0               0               0               0            
          XJ    0               0               0               0            
       UCRIT   10.000000E+03   10.000000E+03   10.000000E+03   10.000000E+03 
      DIOMOD    1               1               1               1            
         VFB    0               0               0               0            
        LETA    0               0               0               0            
        WETA    0               0               0               0            
          U0    0               0               0               0            
        TEMP    0               0               0               0            
         VDD    5               5               5               5            
       XPART    0               0               0               0            


**** 11/24/22 09:28:12 ******* PSpice 17.4.0 (Nov 2018) ******* ID# 0 ********

 ** Profile: "SCHEMATIC1-hbridge"  [ S:\projects\radiotelescope-PCB\Simulation\hbridge\hbridge-pspicefiles\schematic1\hbridge.sim ] 


 ****     INITIAL TRANSIENT SOLUTION       TEMPERATURE =   27.000 DEG C


******************************************************************************



 NODE   VOLTAGE     NODE   VOLTAGE     NODE   VOLTAGE     NODE   VOLTAGE


(N03377)   24.0000 (N03525)   24.0000 (N03543)   24.0000 (N03557)   12.0100     

(N03583)   12.0100 (N03745)    0.0000 (N03761) 240.0E-09 (N03767)    0.0000     

(N03791) 3.603E-09 (N03951) 3.603E-09 (N04776) 240.0E-09 (N05606)   24.0000     

(N05618)   24.0000 (X_U1.4)    0.0000 (X_U1.5)   12.0100 (X_U1.6)   12.0100     

(X_U1.7) 3.661E-09 (X_U1.8) 374.8E-15 (X_U1.9)   12.0100 (X_U2.4)    0.0000     

(X_U2.5)  -11.9900 (X_U2.6)  -11.9900 (X_U2.7)   24.0000 (X_U2.8)   24.0000     

(X_U2.9)   12.0100 (X_U3.4)    0.0000 (X_U3.5)  -11.9900 (X_U3.6)  -11.9900     

(X_U3.7)   24.0000 (X_U3.8)   24.0000 (X_U3.9)   12.0100 (X_U4.4)    0.0000     

(X_U4.5)   12.0100 (X_U4.6)   12.0100 (X_U4.7) 3.661E-09 (X_U4.8) 374.8E-15     

(X_U4.9)   12.0100 (X_U1.10)   12.0100                   (X_U1.11)   12.0100    

(X_U2.10)  -11.9900                   (X_U2.11)  -11.9900                       

(X_U3.10)  -11.9900                   (X_U3.11)  -11.9900                       

(X_U4.10)   12.0100                   (X_U4.11)   12.0100                       

(X_D1.xinstbzx84c5v1.1)   19.3750     (X_D1.xinstbzx84c5v1.3)    4.6247         

(X_D1.xinstbzx84c5v1.9)   24.0000     (X_D2.xinstbzx84c5v1.1)   19.3750         

(X_D2.xinstbzx84c5v1.3)    4.6247     (X_D2.xinstbzx84c5v1.9)   24.0000     




    VOLTAGE SOURCE CURRENTS
    NAME         CURRENT

    V_V1        -1.092E-05
    V_V4         6.003E-11
    V_V3         6.003E-11
    X_U1.VFI2    1.201E-11
    X_U1.VFI1    0.000E+00
    X_U2.VFI2   -1.199E-11
    X_U2.VFI1    0.000E+00
    X_U3.VFI2   -1.199E-11
    X_U3.VFI1    0.000E+00
    X_U4.VFI2    1.201E-11
    X_U4.VFI1    0.000E+00

    TOTAL POWER DISSIPATION   2.62E-04  WATTS



          JOB CONCLUDED

**** 11/24/22 09:28:12 ******* PSpice 17.4.0 (Nov 2018) ******* ID# 0 ********

 ** Profile: "SCHEMATIC1-hbridge"  [ S:\projects\radiotelescope-PCB\Simulation\hbridge\hbridge-pspicefiles\schematic1\hbridge.sim ] 


 ****     JOB STATISTICS SUMMARY


******************************************************************************



  License check-out time            =        2.51
  Total job time (using Solver 1)   =         .17
